 v-sweep       gmid          v-sweep       @m1[id]      
-2.000000e-01  5.048224e-01 -2.000000e-01  1.321458e-14 
-1.990000e-01  5.205004e-01 -1.990000e-01  1.322136e-14 
-1.980000e-01  5.366569e-01 -1.980000e-01  1.322835e-14 
-1.970000e-01  5.533057e-01 -1.970000e-01  1.323556e-14 
-1.960000e-01  5.704614e-01 -1.960000e-01  1.324300e-14 
-1.950000e-01  5.881388e-01 -1.950000e-01  1.325067e-14 
-1.940000e-01  6.063530e-01 -1.940000e-01  1.325858e-14 
-1.930000e-01  6.251198e-01 -1.930000e-01  1.326675e-14 
-1.920000e-01  6.444551e-01 -1.920000e-01  1.327517e-14 
-1.910000e-01  6.643754e-01 -1.910000e-01  1.328386e-14 
-1.900000e-01  6.848976e-01 -1.900000e-01  1.329283e-14 
-1.890000e-01  7.060390e-01 -1.890000e-01  1.330207e-14 
-1.880000e-01  7.278173e-01 -1.880000e-01  1.331161e-14 
-1.870000e-01  7.502508e-01 -1.870000e-01  1.332145e-14 
-1.860000e-01  7.733581e-01 -1.860000e-01  1.333161e-14 
-1.850000e-01  7.971585e-01 -1.850000e-01  1.334208e-14 
-1.840000e-01  8.216714e-01 -1.840000e-01  1.335288e-14 
-1.830000e-01  8.469170e-01 -1.830000e-01  1.336403e-14 
-1.820000e-01  8.729159e-01 -1.820000e-01  1.337552e-14 
-1.810000e-01  8.996891e-01 -1.810000e-01  1.338738e-14 
-1.800000e-01  9.272583e-01 -1.800000e-01  1.339961e-14 
-1.790000e-01  9.556455e-01 -1.790000e-01  1.341223e-14 
-1.780000e-01  9.848734e-01 -1.780000e-01  1.342525e-14 
-1.770000e-01  1.014965e+00 -1.770000e-01  1.343868e-14 
-1.760000e-01  1.045944e+00 -1.760000e-01  1.345254e-14 
-1.750000e-01  1.077835e+00 -1.750000e-01  1.346683e-14 
-1.740000e-01  1.110662e+00 -1.740000e-01  1.348157e-14 
-1.730000e-01  1.144451e+00 -1.730000e-01  1.349678e-14 
-1.720000e-01  1.179227e+00 -1.720000e-01  1.351247e-14 
-1.710000e-01  1.215017e+00 -1.710000e-01  1.352865e-14 
-1.700000e-01  1.251848e+00 -1.700000e-01  1.354535e-14 
-1.690000e-01  1.289747e+00 -1.690000e-01  1.356257e-14 
-1.680000e-01  1.328742e+00 -1.680000e-01  1.358034e-14 
-1.670000e-01  1.368863e+00 -1.670000e-01  1.359867e-14 
-1.660000e-01  1.410137e+00 -1.660000e-01  1.361758e-14 
-1.650000e-01  1.452594e+00 -1.650000e-01  1.363708e-14 
-1.640000e-01  1.496266e+00 -1.640000e-01  1.365720e-14 
-1.630000e-01  1.541182e+00 -1.630000e-01  1.367796e-14 
-1.620000e-01  1.587374e+00 -1.620000e-01  1.369937e-14 
-1.610000e-01  1.634875e+00 -1.610000e-01  1.372145e-14 
-1.600000e-01  1.683715e+00 -1.600000e-01  1.374424e-14 
-1.590000e-01  1.733928e+00 -1.590000e-01  1.376775e-14 
-1.580000e-01  1.785548e+00 -1.580000e-01  1.379199e-14 
-1.570000e-01  1.838608e+00 -1.570000e-01  1.381701e-14 
-1.560000e-01  1.893144e+00 -1.560000e-01  1.384281e-14 
-1.550000e-01  1.949189e+00 -1.550000e-01  1.386943e-14 
-1.540000e-01  2.006779e+00 -1.540000e-01  1.389689e-14 
-1.530000e-01  2.065950e+00 -1.530000e-01  1.392521e-14 
-1.520000e-01  2.126737e+00 -1.520000e-01  1.395443e-14 
-1.510000e-01  2.189179e+00 -1.510000e-01  1.398458e-14 
-1.500000e-01  2.253311e+00 -1.500000e-01  1.401567e-14 
-1.490000e-01  2.319171e+00 -1.490000e-01  1.404775e-14 
-1.480000e-01  2.386797e+00 -1.480000e-01  1.408084e-14 
-1.470000e-01  2.456226e+00 -1.470000e-01  1.411498e-14 
-1.460000e-01  2.527497e+00 -1.460000e-01  1.415019e-14 
-1.450000e-01  2.600648e+00 -1.450000e-01  1.418652e-14 
-1.440000e-01  2.675717e+00 -1.440000e-01  1.422399e-14 
-1.430000e-01  2.752744e+00 -1.430000e-01  1.426265e-14 
-1.420000e-01  2.831768e+00 -1.420000e-01  1.430253e-14 
-1.410000e-01  2.912826e+00 -1.410000e-01  1.434366e-14 
-1.400000e-01  2.995959e+00 -1.400000e-01  1.438610e-14 
-1.390000e-01  3.081205e+00 -1.390000e-01  1.442988e-14 
-1.380000e-01  3.168603e+00 -1.380000e-01  1.447504e-14 
-1.370000e-01  3.258191e+00 -1.370000e-01  1.452162e-14 
-1.360000e-01  3.350008e+00 -1.360000e-01  1.456968e-14 
-1.350000e-01  3.444093e+00 -1.350000e-01  1.461926e-14 
-1.340000e-01  3.540464e+00 -1.340000e-01  1.467040e-14 
-1.330000e-01  3.639163e+00 -1.330000e-01  1.472315e-14 
-1.320000e-01  3.740238e+00 -1.320000e-01  1.477758e-14 
-1.310000e-01  3.843727e+00 -1.310000e-01  1.483372e-14 
-1.300000e-01  3.949664e+00 -1.300000e-01  1.489163e-14 
-1.290000e-01  4.058084e+00 -1.290000e-01  1.495137e-14 
-1.280000e-01  4.169023e+00 -1.280000e-01  1.501299e-14 
-1.270000e-01  4.282511e+00 -1.270000e-01  1.507657e-14 
-1.260000e-01  4.398583e+00 -1.260000e-01  1.514215e-14 
-1.250000e-01  4.517270e+00 -1.250000e-01  1.520980e-14 
-1.240000e-01  4.638600e+00 -1.240000e-01  1.527958e-14 
-1.230000e-01  4.762604e+00 -1.230000e-01  1.535157e-14 
-1.220000e-01  4.889308e+00 -1.220000e-01  1.542583e-14 
-1.210000e-01  5.018738e+00 -1.210000e-01  1.550244e-14 
-1.200000e-01  5.150919e+00 -1.200000e-01  1.558146e-14 
-1.190000e-01  5.285874e+00 -1.190000e-01  1.566298e-14 
-1.180000e-01  5.423623e+00 -1.180000e-01  1.574708e-14 
-1.170000e-01  5.564185e+00 -1.170000e-01  1.583382e-14 
-1.160000e-01  5.707578e+00 -1.160000e-01  1.592331e-14 
-1.150000e-01  5.853817e+00 -1.150000e-01  1.601562e-14 
-1.140000e-01  6.002914e+00 -1.140000e-01  1.611084e-14 
-1.130000e-01  6.154880e+00 -1.130000e-01  1.620907e-14 
-1.120000e-01  6.309722e+00 -1.120000e-01  1.631041e-14 
-1.110000e-01  6.467447e+00 -1.110000e-01  1.641494e-14 
-1.100000e-01  6.628058e+00 -1.100000e-01  1.652276e-14 
-1.090000e-01  6.791554e+00 -1.090000e-01  1.663400e-14 
-1.080000e-01  6.957933e+00 -1.080000e-01  1.674874e-14 
-1.070000e-01  7.127189e+00 -1.070000e-01  1.686711e-14 
-1.060000e-01  7.299313e+00 -1.060000e-01  1.698921e-14 
-1.050000e-01  7.474295e+00 -1.050000e-01  1.711517e-14 
-1.040000e-01  7.652119e+00 -1.040000e-01  1.724510e-14 
-1.030000e-01  7.832766e+00 -1.030000e-01  1.737913e-14 
-1.020000e-01  8.016216e+00 -1.020000e-01  1.751740e-14 
-1.010000e-01  8.202443e+00 -1.010000e-01  1.766003e-14 
-1.000000e-01  8.391419e+00 -1.000000e-01  1.780715e-14 
-9.900000e-02  8.583112e+00 -9.900000e-02  1.795893e-14 
-9.800000e-02  8.777486e+00 -9.800000e-02  1.811549e-14 
-9.700000e-02  8.974502e+00 -9.700000e-02  1.827700e-14 
-9.600000e-02  9.174118e+00 -9.600000e-02  1.844360e-14 
-9.500000e-02  9.376286e+00 -9.500000e-02  1.861546e-14 
-9.400000e-02  9.580956e+00 -9.400000e-02  1.879274e-14 
-9.300000e-02  9.788075e+00 -9.300000e-02  1.897562e-14 
-9.200000e-02  9.997585e+00 -9.200000e-02  1.916427e-14 
-9.100000e-02  1.020942e+01 -9.100000e-02  1.935888e-14 
-9.000000e-02  1.042353e+01 -9.000000e-02  1.955962e-14 
-8.900000e-02  1.063983e+01 -8.900000e-02  1.976670e-14 
-8.800000e-02  1.085825e+01 -8.800000e-02  1.998032e-14 
-8.700000e-02  1.107872e+01 -8.700000e-02  2.020067e-14 
-8.600000e-02  1.130116e+01 -8.600000e-02  2.042798e-14 
-8.500000e-02  1.152549e+01 -8.500000e-02  2.066247e-14 
-8.400000e-02  1.175162e+01 -8.400000e-02  2.090435e-14 
-8.300000e-02  1.197946e+01 -8.300000e-02  2.115387e-14 
-8.200000e-02  1.220893e+01 -8.200000e-02  2.141126e-14 
-8.100000e-02  1.243991e+01 -8.100000e-02  2.167677e-14 
-8.000000e-02  1.267233e+01 -8.000000e-02  2.195066e-14 
-7.900000e-02  1.290608e+01 -7.900000e-02  2.223319e-14 
-7.800000e-02  1.314105e+01 -7.800000e-02  2.252464e-14 
-7.700000e-02  1.337714e+01 -7.700000e-02  2.282528e-14 
-7.600000e-02  1.361425e+01 -7.600000e-02  2.313541e-14 
-7.500000e-02  1.385226e+01 -7.500000e-02  2.345532e-14 
-7.400000e-02  1.409107e+01 -7.400000e-02  2.378533e-14 
-7.300000e-02  1.433056e+01 -7.300000e-02  2.412575e-14 
-7.200000e-02  1.457062e+01 -7.200000e-02  2.447691e-14 
-7.100000e-02  1.481114e+01 -7.100000e-02  2.483915e-14 
-7.000000e-02  1.505200e+01 -7.000000e-02  2.521282e-14 
-6.900000e-02  1.529308e+01 -6.900000e-02  2.559828e-14 
-6.800000e-02  1.553427e+01 -6.800000e-02  2.599590e-14 
-6.700000e-02  1.577546e+01 -6.700000e-02  2.640607e-14 
-6.600000e-02  1.601652e+01 -6.600000e-02  2.682917e-14 
-6.500000e-02  1.625733e+01 -6.500000e-02  2.726563e-14 
-6.400000e-02  1.649779e+01 -6.400000e-02  2.771585e-14 
-6.300000e-02  1.673778e+01 -6.300000e-02  2.818027e-14 
-6.200000e-02  1.697718e+01 -6.200000e-02  2.865935e-14 
-6.100000e-02  1.721589e+01 -6.100000e-02  2.915354e-14 
-6.000000e-02  1.745378e+01 -6.000000e-02  2.966332e-14 
-5.900000e-02  1.769075e+01 -5.900000e-02  3.018918e-14 
-5.800000e-02  1.792669e+01 -5.800000e-02  3.073163e-14 
-5.700000e-02  1.816149e+01 -5.700000e-02  3.129119e-14 
-5.600000e-02  1.839505e+01 -5.600000e-02  3.186840e-14 
-5.500000e-02  1.862727e+01 -5.500000e-02  3.246382e-14 
-5.400000e-02  1.885804e+01 -5.400000e-02  3.307802e-14 
-5.300000e-02  1.908728e+01 -5.300000e-02  3.371159e-14 
-5.200000e-02  1.931488e+01 -5.200000e-02  3.436515e-14 
-5.100000e-02  1.954075e+01 -5.100000e-02  3.503932e-14 
-5.000000e-02  1.976481e+01 -5.000000e-02  3.573476e-14 
-4.900000e-02  1.998697e+01 -4.900000e-02  3.645213e-14 
-4.800000e-02  2.020714e+01 -4.800000e-02  3.719213e-14 
-4.700000e-02  2.042526e+01 -4.700000e-02  3.795547e-14 
-4.600000e-02  2.064123e+01 -4.600000e-02  3.874288e-14 
-4.500000e-02  2.085500e+01 -4.500000e-02  3.955513e-14 
-4.400000e-02  2.106650e+01 -4.400000e-02  4.039299e-14 
-4.300000e-02  2.127565e+01 -4.300000e-02  4.125728e-14 
-4.200000e-02  2.148240e+01 -4.200000e-02  4.214882e-14 
-4.100000e-02  2.168669e+01 -4.100000e-02  4.306848e-14 
-4.000000e-02  2.188847e+01 -4.000000e-02  4.401715e-14 
-3.900000e-02  2.208769e+01 -3.900000e-02  4.499573e-14 
-3.800000e-02  2.228429e+01 -3.800000e-02  4.600517e-14 
-3.700000e-02  2.247825e+01 -3.700000e-02  4.704644e-14 
-3.600000e-02  2.266951e+01 -3.600000e-02  4.812055e-14 
-3.500000e-02  2.285805e+01 -3.500000e-02  4.922853e-14 
-3.400000e-02  2.304383e+01 -3.400000e-02  5.037145e-14 
-3.300000e-02  2.322683e+01 -3.300000e-02  5.155041e-14 
-3.200000e-02  2.340701e+01 -3.200000e-02  5.276654e-14 
-3.100000e-02  2.358437e+01 -3.100000e-02  5.402102e-14 
-3.000000e-02  2.375887e+01 -3.000000e-02  5.531505e-14 
-2.900000e-02  2.393051e+01 -2.900000e-02  5.664989e-14 
-2.800000e-02  2.409928e+01 -2.800000e-02  5.802681e-14 
-2.700000e-02  2.426516e+01 -2.700000e-02  5.944714e-14 
-2.600000e-02  2.442815e+01 -2.600000e-02  6.091226e-14 
-2.500000e-02  2.458825e+01 -2.500000e-02  6.242357e-14 
-2.400000e-02  2.474546e+01 -2.400000e-02  6.398253e-14 
-2.300000e-02  2.489978e+01 -2.300000e-02  6.559063e-14 
-2.200000e-02  2.505122e+01 -2.200000e-02  6.724944e-14 
-2.100000e-02  2.519979e+01 -2.100000e-02  6.896053e-14 
-2.000000e-02  2.534549e+01 -2.000000e-02  7.072558e-14 
-1.900000e-02  2.548834e+01 -1.900000e-02  7.254626e-14 
-1.800000e-02  2.562836e+01 -1.800000e-02  7.442434e-14 
-1.700000e-02  2.576556e+01 -1.700000e-02  7.636162e-14 
-1.600000e-02  2.589996e+01 -1.600000e-02  7.835997e-14 
-1.500000e-02  2.603158e+01 -1.500000e-02  8.042131e-14 
-1.400000e-02  2.616045e+01 -1.400000e-02  8.254763e-14 
-1.300000e-02  2.628659e+01 -1.300000e-02  8.474097e-14 
-1.200000e-02  2.641002e+01 -1.200000e-02  8.700344e-14 
-1.100000e-02  2.653078e+01 -1.100000e-02  8.933723e-14 
-1.000000e-02  2.664889e+01 -1.000000e-02  9.174458e-14 
-9.000000e-03  2.676438e+01 -9.000000e-03  9.422780e-14 
-8.000000e-03  2.687728e+01 -8.000000e-03  9.678928e-14 
-7.000000e-03  2.698764e+01 -7.000000e-03  9.943150e-14 
-6.000000e-03  2.709547e+01 -6.000000e-03  1.021570e-13 
-5.000000e-03  2.720081e+01 -5.000000e-03  1.049684e-13 
-4.000000e-03  2.730370e+01 -4.000000e-03  1.078683e-13 
-3.000000e-03  2.740417e+01 -3.000000e-03  1.108597e-13 
-2.000000e-03  2.750227e+01 -2.000000e-03  1.139454e-13 
-1.000000e-03  2.759802e+01 -1.000000e-03  1.171282e-13 
 1.595946e-16  2.769147e+01  1.595946e-16  1.204114e-13 
 1.000000e-03  2.778265e+01  1.000000e-03  1.237980e-13 
 2.000000e-03  2.787160e+01  2.000000e-03  1.272914e-13 
 3.000000e-03  2.795835e+01  3.000000e-03  1.308948e-13 
 4.000000e-03  2.804296e+01  4.000000e-03  1.346118e-13 
 5.000000e-03  2.812544e+01  5.000000e-03  1.384458e-13 
 6.000000e-03  2.820586e+01  6.000000e-03  1.424007e-13 
 7.000000e-03  2.828423e+01  7.000000e-03  1.464802e-13 
 8.000000e-03  2.836061e+01  8.000000e-03  1.506882e-13 
 9.000000e-03  2.843503e+01  9.000000e-03  1.550288e-13 
 1.000000e-02  2.850753e+01  1.000000e-02  1.595061e-13 
 1.100000e-02  2.857814e+01  1.100000e-02  1.641245e-13 
 1.200000e-02  2.864691e+01  1.200000e-02  1.688884e-13 
 1.300000e-02  2.871388e+01  1.300000e-02  1.738023e-13 
 1.400000e-02  2.877907e+01  1.400000e-02  1.788710e-13 
 1.500000e-02  2.884254e+01  1.500000e-02  1.840994e-13 
 1.600000e-02  2.890431e+01  1.600000e-02  1.894925e-13 
 1.700000e-02  2.896442e+01  1.700000e-02  1.950555e-13 
 1.800000e-02  2.902291e+01  1.800000e-02  2.007937e-13 
 1.900000e-02  2.907982e+01  1.900000e-02  2.067126e-13 
 2.000000e-02  2.913518e+01  2.000000e-02  2.128179e-13 
 2.100000e-02  2.918903e+01  2.100000e-02  2.191156e-13 
 2.200000e-02  2.924139e+01  2.200000e-02  2.256115e-13 
 2.300000e-02  2.929232e+01  2.300000e-02  2.323121e-13 
 2.400000e-02  2.934183e+01  2.400000e-02  2.392236e-13 
 2.500000e-02  2.938996e+01  2.500000e-02  2.463528e-13 
 2.600000e-02  2.943675e+01  2.600000e-02  2.537065e-13 
 2.700000e-02  2.948222e+01  2.700000e-02  2.612918e-13 
 2.800000e-02  2.952642e+01  2.800000e-02  2.691159e-13 
 2.900000e-02  2.956936e+01  2.900000e-02  2.771864e-13 
 3.000000e-02  2.961108e+01  3.000000e-02  2.855110e-13 
 3.100000e-02  2.965162e+01  3.100000e-02  2.940977e-13 
 3.200000e-02  2.969099e+01  3.200000e-02  3.029547e-13 
 3.300000e-02  2.972923e+01  3.300000e-02  3.120906e-13 
 3.400000e-02  2.976637e+01  3.400000e-02  3.215141e-13 
 3.500000e-02  2.980244e+01  3.500000e-02  3.312343e-13 
 3.600000e-02  2.983746e+01  3.600000e-02  3.412605e-13 
 3.700000e-02  2.987146e+01  3.700000e-02  3.516023e-13 
 3.800000e-02  2.990446e+01  3.800000e-02  3.622696e-13 
 3.900000e-02  2.993649e+01  3.900000e-02  3.732727e-13 
 4.000000e-02  2.996758e+01  4.000000e-02  3.846221e-13 
 4.100000e-02  2.999775e+01  4.100000e-02  3.963288e-13 
 4.200000e-02  3.002703e+01  4.200000e-02  4.084038e-13 
 4.300000e-02  3.005543e+01  4.300000e-02  4.208590e-13 
 4.400000e-02  3.008299e+01  4.400000e-02  4.337061e-13 
 4.500000e-02  3.010972e+01  4.500000e-02  4.469575e-13 
 4.600000e-02  3.013564e+01  4.600000e-02  4.606259e-13 
 4.700000e-02  3.016078e+01  4.700000e-02  4.747245e-13 
 4.800000e-02  3.018516e+01  4.800000e-02  4.892666e-13 
 4.900000e-02  3.020880e+01  4.900000e-02  5.042664e-13 
 5.000000e-02  3.023172e+01  5.000000e-02  5.197381e-13 
 5.100000e-02  3.025393e+01  5.100000e-02  5.356965e-13 
 5.200000e-02  3.027546e+01  5.200000e-02  5.521571e-13 
 5.300000e-02  3.029633e+01  5.300000e-02  5.691355e-13 
 5.400000e-02  3.031654e+01  5.400000e-02  5.866480e-13 
 5.500000e-02  3.033613e+01  5.500000e-02  6.047115e-13 
 5.600000e-02  3.035511e+01  5.600000e-02  6.233431e-13 
 5.700000e-02  3.037349e+01  5.700000e-02  6.425608e-13 
 5.800000e-02  3.039129e+01  5.800000e-02  6.623829e-13 
 5.900000e-02  3.040853e+01  5.900000e-02  6.828286e-13 
 6.000000e-02  3.042522e+01  6.000000e-02  7.039172e-13 
 6.100000e-02  3.044137e+01  6.100000e-02  7.256691e-13 
 6.200000e-02  3.045701e+01  6.200000e-02  7.481050e-13 
 6.300000e-02  3.047215e+01  6.300000e-02  7.712464e-13 
 6.400000e-02  3.048679e+01  6.400000e-02  7.951155e-13 
 6.500000e-02  3.050096e+01  6.500000e-02  8.197352e-13 
 6.600000e-02  3.051466e+01  6.600000e-02  8.451289e-13 
 6.700000e-02  3.052791e+01  6.700000e-02  8.713211e-13 
 6.800000e-02  3.054073e+01  6.800000e-02  8.983366e-13 
 6.900000e-02  3.055311e+01  6.900000e-02  9.262015e-13 
 7.000000e-02  3.056509e+01  7.000000e-02  9.549423e-13 
 7.100000e-02  3.057666e+01  7.100000e-02  9.845866e-13 
 7.200000e-02  3.058783e+01  7.200000e-02  1.015163e-12 
 7.300000e-02  3.059863e+01  7.300000e-02  1.046700e-12 
 7.400000e-02  3.060905e+01  7.400000e-02  1.079228e-12 
 7.500000e-02  3.061911e+01  7.500000e-02  1.112779e-12 
 7.600000e-02  3.062883e+01  7.600000e-02  1.147383e-12 
 7.700000e-02  3.063820e+01  7.700000e-02  1.183076e-12 
 7.800000e-02  3.064724e+01  7.800000e-02  1.219890e-12 
 7.900000e-02  3.065595e+01  7.900000e-02  1.257860e-12 
 8.000000e-02  3.066435e+01  8.000000e-02  1.297024e-12 
 8.100000e-02  3.067245e+01  8.100000e-02  1.337418e-12 
 8.200000e-02  3.068025e+01  8.200000e-02  1.379081e-12 
 8.300000e-02  3.068776e+01  8.300000e-02  1.422052e-12 
 8.400000e-02  3.069499e+01  8.400000e-02  1.466374e-12 
 8.500000e-02  3.070194e+01  8.500000e-02  1.512087e-12 
 8.600000e-02  3.070863e+01  8.600000e-02  1.559236e-12 
 8.700000e-02  3.071505e+01  8.700000e-02  1.607866e-12 
 8.800000e-02  3.072123e+01  8.800000e-02  1.658023e-12 
 8.900000e-02  3.072716e+01  8.900000e-02  1.709756e-12 
 9.000000e-02  3.073285e+01  9.000000e-02  1.763112e-12 
 9.100000e-02  3.073830e+01  9.100000e-02  1.818144e-12 
 9.200000e-02  3.074353e+01  9.200000e-02  1.874903e-12 
 9.300000e-02  3.074854e+01  9.300000e-02  1.933444e-12 
 9.400000e-02  3.075333e+01  9.400000e-02  1.993823e-12 
 9.500000e-02  3.075792e+01  9.500000e-02  2.056097e-12 
 9.600000e-02  3.076229e+01  9.600000e-02  2.120326e-12 
 9.700000e-02  3.076647e+01  9.700000e-02  2.186570e-12 
 9.800000e-02  3.077046e+01  9.800000e-02  2.254893e-12 
 9.900000e-02  3.077425e+01  9.900000e-02  2.325360e-12 
 1.000000e-01  3.077787e+01  1.000000e-01  2.398038e-12 
 1.010000e-01  3.078130e+01  1.010000e-01  2.472997e-12 
 1.020000e-01  3.078455e+01  1.020000e-01  2.550307e-12 
 1.030000e-01  3.078764e+01  1.030000e-01  2.630042e-12 
 1.040000e-01  3.079055e+01  1.040000e-01  2.712278e-12 
 1.050000e-01  3.079331e+01  1.050000e-01  2.797093e-12 
 1.060000e-01  3.079590e+01  1.060000e-01  2.884569e-12 
 1.070000e-01  3.079834e+01  1.070000e-01  2.974787e-12 
 1.080000e-01  3.080063e+01  1.080000e-01  3.067835e-12 
 1.090000e-01  3.080277e+01  1.090000e-01  3.163800e-12 
 1.100000e-01  3.080476e+01  1.100000e-01  3.262773e-12 
 1.110000e-01  3.080661e+01  1.110000e-01  3.364849e-12 
 1.120000e-01  3.080833e+01  1.120000e-01  3.470125e-12 
 1.130000e-01  3.080990e+01  1.130000e-01  3.578701e-12 
 1.140000e-01  3.081135e+01  1.140000e-01  3.690679e-12 
 1.150000e-01  3.081267e+01  1.150000e-01  3.806166e-12 
 1.160000e-01  3.081385e+01  1.160000e-01  3.925272e-12 
 1.170000e-01  3.081492e+01  1.170000e-01  4.048110e-12 
 1.180000e-01  3.081586e+01  1.180000e-01  4.174796e-12 
 1.190000e-01  3.081668e+01  1.190000e-01  4.305451e-12 
 1.200000e-01  3.081739e+01  1.200000e-01  4.440198e-12 
 1.210000e-01  3.081798e+01  1.210000e-01  4.579165e-12 
 1.220000e-01  3.081845e+01  1.220000e-01  4.722483e-12 
 1.230000e-01  3.081882e+01  1.230000e-01  4.870290e-12 
 1.240000e-01  3.081908e+01  1.240000e-01  5.022724e-12 
 1.250000e-01  3.081923e+01  1.250000e-01  5.179930e-12 
 1.260000e-01  3.081928e+01  1.260000e-01  5.342057e-12 
 1.270000e-01  3.081922e+01  1.270000e-01  5.509259e-12 
 1.280000e-01  3.081906e+01  1.280000e-01  5.681693e-12 
 1.290000e-01  3.081881e+01  1.290000e-01  5.859523e-12 
 1.300000e-01  3.081845e+01  1.300000e-01  6.042917e-12 
 1.310000e-01  3.081800e+01  1.310000e-01  6.232048e-12 
 1.320000e-01  3.081745e+01  1.320000e-01  6.427096e-12 
 1.330000e-01  3.081681e+01  1.330000e-01  6.628244e-12 
 1.340000e-01  3.081607e+01  1.340000e-01  6.835683e-12 
 1.350000e-01  3.081525e+01  1.350000e-01  7.049608e-12 
 1.360000e-01  3.081433e+01  1.360000e-01  7.270222e-12 
 1.370000e-01  3.081333e+01  1.370000e-01  7.497733e-12 
 1.380000e-01  3.081223e+01  1.380000e-01  7.732355e-12 
 1.390000e-01  3.081105e+01  1.390000e-01  7.974310e-12 
 1.400000e-01  3.080979e+01  1.400000e-01  8.223826e-12 
 1.410000e-01  3.080843e+01  1.410000e-01  8.481138e-12 
 1.420000e-01  3.080700e+01  1.420000e-01  8.746489e-12 
 1.430000e-01  3.080548e+01  1.430000e-01  9.020129e-12 
 1.440000e-01  3.080387e+01  1.440000e-01  9.302315e-12 
 1.450000e-01  3.080219e+01  1.450000e-01  9.593313e-12 
 1.460000e-01  3.080042e+01  1.460000e-01  9.893398e-12 
 1.470000e-01  3.079857e+01  1.470000e-01  1.020285e-11 
 1.480000e-01  3.079664e+01  1.480000e-01  1.052196e-11 
