 v-sweep       gmid          v-sweep       @Nn1[ids]    
-2.000000e-01  3.015764e+01 -2.000000e-01  2.470689e-12 
-1.990000e-01  3.016138e+01 -1.990000e-01  2.546338e-12 
-1.980000e-01  3.016511e+01 -1.980000e-01  2.624314e-12 
-1.970000e-01  3.016883e+01 -1.970000e-01  2.704688e-12 
-1.960000e-01  3.017255e+01 -1.960000e-01  2.787534e-12 
-1.950000e-01  3.017625e+01 -1.950000e-01  2.872928e-12 
-1.940000e-01  3.017995e+01 -1.940000e-01  2.960949e-12 
-1.930000e-01  3.018364e+01 -1.930000e-01  3.051678e-12 
-1.920000e-01  3.018733e+01 -1.920000e-01  3.145199e-12 
-1.910000e-01  3.019100e+01 -1.910000e-01  3.241598e-12 
-1.900000e-01  3.019467e+01 -1.900000e-01  3.340963e-12 
-1.890000e-01  3.019833e+01 -1.890000e-01  3.443387e-12 
-1.880000e-01  3.020198e+01 -1.880000e-01  3.548964e-12 
-1.870000e-01  3.020562e+01 -1.870000e-01  3.657792e-12 
-1.860000e-01  3.020925e+01 -1.860000e-01  3.769970e-12 
-1.850000e-01  3.021288e+01 -1.850000e-01  3.885603e-12 
-1.840000e-01  3.021650e+01 -1.840000e-01  4.004797e-12 
-1.830000e-01  3.022011e+01 -1.830000e-01  4.127662e-12 
-1.820000e-01  3.022371e+01 -1.820000e-01  4.254312e-12 
-1.810000e-01  3.022731e+01 -1.810000e-01  4.384864e-12 
-1.800000e-01  3.023089e+01 -1.800000e-01  4.519438e-12 
-1.790000e-01  3.023447e+01 -1.790000e-01  4.658159e-12 
-1.780000e-01  3.023804e+01 -1.780000e-01  4.801155e-12 
-1.770000e-01  3.024161e+01 -1.770000e-01  4.948559e-12 
-1.760000e-01  3.024516e+01 -1.760000e-01  5.100506e-12 
-1.750000e-01  3.024871e+01 -1.750000e-01  5.257138e-12 
-1.740000e-01  3.025225e+01 -1.740000e-01  5.418598e-12 
-1.730000e-01  3.025578e+01 -1.730000e-01  5.585038e-12 
-1.720000e-01  3.025931e+01 -1.720000e-01  5.756610e-12 
-1.710000e-01  3.026283e+01 -1.710000e-01  5.933474e-12 
-1.700000e-01  3.026634e+01 -1.700000e-01  6.115793e-12 
-1.690000e-01  3.026984e+01 -1.690000e-01  6.303736e-12 
-1.680000e-01  3.027333e+01 -1.680000e-01  6.497478e-12 
-1.670000e-01  3.027682e+01 -1.670000e-01  6.697197e-12 
-1.660000e-01  3.028030e+01 -1.660000e-01  6.903080e-12 
-1.650000e-01  3.028377e+01 -1.650000e-01  7.115317e-12 
-1.640000e-01  3.028723e+01 -1.640000e-01  7.334104e-12 
-1.630000e-01  3.029069e+01 -1.630000e-01  7.559645e-12 
-1.620000e-01  3.029414e+01 -1.620000e-01  7.792148e-12 
-1.610000e-01  3.029758e+01 -1.610000e-01  8.031831e-12 
-1.600000e-01  3.030101e+01 -1.600000e-01  8.278914e-12 
-1.590000e-01  3.030444e+01 -1.590000e-01  8.533627e-12 
-1.580000e-01  3.030786e+01 -1.580000e-01  8.796207e-12 
-1.570000e-01  3.031127e+01 -1.570000e-01  9.066898e-12 
-1.560000e-01  3.031468e+01 -1.560000e-01  9.345951e-12 
-1.550000e-01  3.031807e+01 -1.550000e-01  9.633625e-12 
-1.540000e-01  3.032146e+01 -1.540000e-01  9.930187e-12 
-1.530000e-01  3.032484e+01 -1.530000e-01  1.023591e-11 
-1.520000e-01  3.032822e+01 -1.520000e-01  1.055109e-11 
-1.510000e-01  3.033158e+01 -1.510000e-01  1.087600e-11 
-1.500000e-01  3.033494e+01 -1.500000e-01  1.121096e-11 
-1.490000e-01  3.033829e+01 -1.490000e-01  1.155628e-11 
-1.480000e-01  3.034164e+01 -1.480000e-01  1.191227e-11 
-1.470000e-01  3.034498e+01 -1.470000e-01  1.227927e-11 
-1.460000e-01  3.034831e+01 -1.460000e-01  1.265761e-11 
-1.450000e-01  3.035163e+01 -1.450000e-01  1.304766e-11 
-1.440000e-01  3.035494e+01 -1.440000e-01  1.344977e-11 
-1.430000e-01  3.035825e+01 -1.430000e-01  1.386432e-11 
-1.420000e-01  3.036155e+01 -1.420000e-01  1.429169e-11 
-1.410000e-01  3.036484e+01 -1.410000e-01  1.473229e-11 
-1.400000e-01  3.036813e+01 -1.400000e-01  1.518652e-11 
-1.390000e-01  3.037141e+01 -1.390000e-01  1.565481e-11 
-1.380000e-01  3.037468e+01 -1.380000e-01  1.613758e-11 
-1.370000e-01  3.037794e+01 -1.370000e-01  1.663531e-11 
-1.360000e-01  3.038120e+01 -1.360000e-01  1.714843e-11 
-1.350000e-01  3.038444e+01 -1.350000e-01  1.767745e-11 
-1.340000e-01  3.038769e+01 -1.340000e-01  1.822284e-11 
-1.330000e-01  3.039092e+01 -1.330000e-01  1.878512e-11 
-1.320000e-01  3.039415e+01 -1.320000e-01  1.936481e-11 
-1.310000e-01  3.039736e+01 -1.310000e-01  1.996246e-11 
-1.300000e-01  3.040058e+01 -1.300000e-01  2.057861e-11 
-1.290000e-01  3.040378e+01 -1.290000e-01  2.121385e-11 
-1.280000e-01  3.040698e+01 -1.280000e-01  2.186878e-11 
-1.270000e-01  3.041016e+01 -1.270000e-01  2.254399e-11 
-1.260000e-01  3.041335e+01 -1.260000e-01  2.324012e-11 
-1.250000e-01  3.041652e+01 -1.250000e-01  2.395783e-11 
-1.240000e-01  3.041969e+01 -1.240000e-01  2.469778e-11 
-1.230000e-01  3.042285e+01 -1.230000e-01  2.546066e-11 
-1.220000e-01  3.042600e+01 -1.220000e-01  2.624719e-11 
-1.210000e-01  3.042914e+01 -1.210000e-01  2.705810e-11 
-1.200000e-01  3.043228e+01 -1.200000e-01  2.789416e-11 
-1.190000e-01  3.043541e+01 -1.190000e-01  2.875613e-11 
-1.180000e-01  3.043853e+01 -1.180000e-01  2.964484e-11 
-1.170000e-01  3.044164e+01 -1.170000e-01  3.056110e-11 
-1.160000e-01  3.044475e+01 -1.160000e-01  3.150579e-11 
-1.150000e-01  3.044784e+01 -1.150000e-01  3.247977e-11 
-1.140000e-01  3.045093e+01 -1.140000e-01  3.348397e-11 
-1.130000e-01  3.045402e+01 -1.130000e-01  3.451933e-11 
-1.120000e-01  3.045709e+01 -1.120000e-01  3.558681e-11 
-1.110000e-01  3.046016e+01 -1.110000e-01  3.668741e-11 
-1.100000e-01  3.046322e+01 -1.100000e-01  3.782216e-11 
-1.090000e-01  3.046627e+01 -1.090000e-01  3.899214e-11 
-1.080000e-01  3.046931e+01 -1.080000e-01  4.019843e-11 
-1.070000e-01  3.047235e+01 -1.070000e-01  4.144216e-11 
-1.060000e-01  3.047537e+01 -1.060000e-01  4.272450e-11 
-1.050000e-01  3.047839e+01 -1.050000e-01  4.404666e-11 
-1.040000e-01  3.048141e+01 -1.040000e-01  4.540986e-11 
-1.030000e-01  3.048441e+01 -1.030000e-01  4.681540e-11 
-1.020000e-01  3.048740e+01 -1.020000e-01  4.826459e-11 
-1.010000e-01  3.049039e+01 -1.010000e-01  4.975878e-11 
-1.000000e-01  3.049337e+01 -1.000000e-01  5.129939e-11 
-9.900000e-02  3.049634e+01 -9.900000e-02  5.288786e-11 
-9.800000e-02  3.049930e+01 -9.800000e-02  5.452567e-11 
-9.700000e-02  3.050225e+01 -9.700000e-02  5.621437e-11 
-9.600000e-02  3.050520e+01 -9.600000e-02  5.795553e-11 
-9.500000e-02  3.050813e+01 -9.500000e-02  5.975081e-11 
-9.400000e-02  3.051106e+01 -9.400000e-02  6.160188e-11 
-9.300000e-02  3.051398e+01 -9.300000e-02  6.351048e-11 
-9.200000e-02  3.051689e+01 -9.200000e-02  6.547840e-11 
-9.100000e-02  3.051979e+01 -9.100000e-02  6.750749e-11 
-9.000000e-02  3.052268e+01 -9.000000e-02  6.959967e-11 
-8.900000e-02  3.052556e+01 -8.900000e-02  7.175690e-11 
-8.800000e-02  3.052843e+01 -8.800000e-02  7.398120e-11 
-8.700000e-02  3.053130e+01 -8.700000e-02  7.627466e-11 
-8.600000e-02  3.053415e+01 -8.600000e-02  7.863946e-11 
-8.500000e-02  3.053699e+01 -8.500000e-02  8.107780e-11 
-8.400000e-02  3.053983e+01 -8.400000e-02  8.359198e-11 
-8.300000e-02  3.054266e+01 -8.300000e-02  8.618437e-11 
-8.200000e-02  3.054547e+01 -8.200000e-02  8.885740e-11 
-8.100000e-02  3.054828e+01 -8.100000e-02  9.161360e-11 
-8.000000e-02  3.055107e+01 -8.000000e-02  9.445555e-11 
-7.900000e-02  3.055386e+01 -7.900000e-02  9.738594e-11 
-7.800000e-02  3.055663e+01 -7.800000e-02  1.004075e-10 
-7.700000e-02  3.055940e+01 -7.700000e-02  1.035231e-10 
-7.600000e-02  3.056215e+01 -7.600000e-02  1.067357e-10 
-7.500000e-02  3.056489e+01 -7.500000e-02  1.100483e-10 
-7.400000e-02  3.056763e+01 -7.400000e-02  1.134640e-10 
-7.300000e-02  3.057035e+01 -7.300000e-02  1.169860e-10 
-7.200000e-02  3.057306e+01 -7.200000e-02  1.206177e-10 
-7.100000e-02  3.057576e+01 -7.100000e-02  1.243625e-10 
-7.000000e-02  3.057844e+01 -7.000000e-02  1.282239e-10 
-6.900000e-02  3.058112e+01 -6.900000e-02  1.322055e-10 
-6.800000e-02  3.058378e+01 -6.800000e-02  1.363111e-10 
-6.700000e-02  3.058644e+01 -6.700000e-02  1.405447e-10 
-6.600000e-02  3.058907e+01 -6.600000e-02  1.449100e-10 
-6.500000e-02  3.059170e+01 -6.500000e-02  1.494114e-10 
-6.400000e-02  3.059432e+01 -6.400000e-02  1.540530e-10 
-6.300000e-02  3.059692e+01 -6.300000e-02  1.588391e-10 
-6.200000e-02  3.059951e+01 -6.200000e-02  1.637745e-10 
-6.100000e-02  3.060208e+01 -6.100000e-02  1.688636e-10 
-6.000000e-02  3.060464e+01 -6.000000e-02  1.741112e-10 
-5.900000e-02  3.060719e+01 -5.900000e-02  1.795225e-10 
-5.800000e-02  3.060972e+01 -5.800000e-02  1.851023e-10 
-5.700000e-02  3.061224e+01 -5.700000e-02  1.908561e-10 
-5.600000e-02  3.061474e+01 -5.600000e-02  1.967892e-10 
-5.500000e-02  3.061723e+01 -5.500000e-02  2.029073e-10 
-5.400000e-02  3.061971e+01 -5.400000e-02  2.092161e-10 
-5.300000e-02  3.062216e+01 -5.300000e-02  2.157216e-10 
-5.200000e-02  3.062461e+01 -5.200000e-02  2.224299e-10 
-5.100000e-02  3.062703e+01 -5.100000e-02  2.293474e-10 
-5.000000e-02  3.062944e+01 -5.000000e-02  2.364806e-10 
-4.900000e-02  3.063184e+01 -4.900000e-02  2.438362e-10 
-4.800000e-02  3.063421e+01 -4.800000e-02  2.514212e-10 
-4.700000e-02  3.063657e+01 -4.700000e-02  2.592428e-10 
-4.600000e-02  3.063891e+01 -4.600000e-02  2.673084e-10 
-4.500000e-02  3.064123e+01 -4.500000e-02  2.756255e-10 
-4.400000e-02  3.064354e+01 -4.400000e-02  2.842020e-10 
-4.300000e-02  3.064582e+01 -4.300000e-02  2.930461e-10 
-4.200000e-02  3.064808e+01 -4.200000e-02  3.021661e-10 
-4.100000e-02  3.065033e+01 -4.100000e-02  3.115707e-10 
-4.000000e-02  3.065255e+01 -4.000000e-02  3.212686e-10 
-3.900000e-02  3.065475e+01 -3.900000e-02  3.312692e-10 
-3.800000e-02  3.065694e+01 -3.800000e-02  3.415818e-10 
-3.700000e-02  3.065910e+01 -3.700000e-02  3.522162e-10 
-3.600000e-02  3.066123e+01 -3.600000e-02  3.631824e-10 
-3.500000e-02  3.066335e+01 -3.500000e-02  3.744909e-10 
-3.400000e-02  3.066544e+01 -3.400000e-02  3.861524e-10 
-3.300000e-02  3.066750e+01 -3.300000e-02  3.981777e-10 
-3.200000e-02  3.066954e+01 -3.200000e-02  4.105784e-10 
-3.100000e-02  3.067156e+01 -3.100000e-02  4.233662e-10 
-3.000000e-02  3.067355e+01 -3.000000e-02  4.365531e-10 
-2.900000e-02  3.067551e+01 -2.900000e-02  4.501517e-10 
-2.800000e-02  3.067745e+01 -2.800000e-02  4.641748e-10 
-2.700000e-02  3.067936e+01 -2.700000e-02  4.786356e-10 
-2.600000e-02  3.068124e+01 -2.600000e-02  4.935479e-10 
-2.500000e-02  3.068309e+01 -2.500000e-02  5.089257e-10 
-2.400000e-02  3.068491e+01 -2.400000e-02  5.247836e-10 
-2.300000e-02  3.068670e+01 -2.300000e-02  5.411366e-10 
-2.200000e-02  3.068845e+01 -2.200000e-02  5.580002e-10 
-2.100000e-02  3.069018e+01 -2.100000e-02  5.753904e-10 
-2.000000e-02  3.069187e+01 -2.000000e-02  5.933235e-10 
-1.900000e-02  3.069352e+01 -1.900000e-02  6.118165e-10 
-1.800000e-02  3.069515e+01 -1.800000e-02  6.308870e-10 
-1.700000e-02  3.069673e+01 -1.700000e-02  6.505529e-10 
-1.600000e-02  3.069828e+01 -1.600000e-02  6.708330e-10 
-1.500000e-02  3.069979e+01 -1.500000e-02  6.917463e-10 
-1.400000e-02  3.070126e+01 -1.400000e-02  7.133126e-10 
-1.300000e-02  3.070269e+01 -1.300000e-02  7.355524e-10 
-1.200000e-02  3.070408e+01 -1.200000e-02  7.584866e-10 
-1.100000e-02  3.070542e+01 -1.100000e-02  7.821370e-10 
-1.000000e-02  3.070672e+01 -1.000000e-02  8.065258e-10 
-9.000000e-03  3.070798e+01 -9.000000e-03  8.316763e-10 
-8.000000e-03  3.070919e+01 -8.000000e-03  8.576121e-10 
-7.000000e-03  3.071035e+01 -7.000000e-03  8.843577e-10 
-6.000000e-03  3.071147e+01 -6.000000e-03  9.119385e-10 
-5.000000e-03  3.071253e+01 -5.000000e-03  9.403805e-10 
-4.000000e-03  3.071354e+01 -4.000000e-03  9.697106e-10 
-3.000000e-03  3.071450e+01 -3.000000e-03  9.999564e-10 
-2.000000e-03  3.071541e+01 -2.000000e-03  1.031147e-09 
-1.000000e-03  3.071626e+01 -1.000000e-03  1.063311e-09 
 1.595946e-16  3.071705e+01  1.595946e-16  1.096479e-09 
 1.000000e-03  3.071778e+01  1.000000e-03  1.130682e-09 
 2.000000e-03  3.071845e+01  2.000000e-03  1.165954e-09 
 3.000000e-03  3.071906e+01  3.000000e-03  1.202326e-09 
 4.000000e-03  3.071960e+01  4.000000e-03  1.239834e-09 
 5.000000e-03  3.072008e+01  5.000000e-03  1.278513e-09 
 6.000000e-03  3.072049e+01  6.000000e-03  1.318398e-09 
 7.000000e-03  3.072082e+01  7.000000e-03  1.359529e-09 
 8.000000e-03  3.072109e+01  8.000000e-03  1.401943e-09 
 9.000000e-03  3.072128e+01  9.000000e-03  1.445681e-09 
 1.000000e-02  3.072140e+01  1.000000e-02  1.490783e-09 
 1.100000e-02  3.072143e+01  1.100000e-02  1.537293e-09 
 1.200000e-02  3.072139e+01  1.200000e-02  1.585254e-09 
 1.300000e-02  3.072126e+01  1.300000e-02  1.634711e-09 
 1.400000e-02  3.072104e+01  1.400000e-02  1.685710e-09 
 1.500000e-02  3.072074e+01  1.500000e-02  1.738301e-09 
 1.600000e-02  3.072034e+01  1.600000e-02  1.792531e-09 
 1.700000e-02  3.071985e+01  1.700000e-02  1.848452e-09 
 1.800000e-02  3.071927e+01  1.800000e-02  1.906117e-09 
 1.900000e-02  3.071859e+01  1.900000e-02  1.965580e-09 
 2.000000e-02  3.071780e+01  2.000000e-02  2.026896e-09 
 2.100000e-02  3.071691e+01  2.100000e-02  2.090123e-09 
 2.200000e-02  3.071591e+01  2.200000e-02  2.155320e-09 
 2.300000e-02  3.071480e+01  2.300000e-02  2.222548e-09 
 2.400000e-02  3.071357e+01  2.400000e-02  2.291871e-09 
 2.500000e-02  3.071223e+01  2.500000e-02  2.363354e-09 
 2.600000e-02  3.071076e+01  2.600000e-02  2.437062e-09 
 2.700000e-02  3.070917e+01  2.700000e-02  2.513065e-09 
 2.800000e-02  3.070745e+01  2.800000e-02  2.591434e-09 
 2.900000e-02  3.070560e+01  2.900000e-02  2.672242e-09 
 3.000000e-02  3.070361e+01  3.000000e-02  2.755565e-09 
 3.100000e-02  3.070148e+01  3.100000e-02  2.841480e-09 
 3.200000e-02  3.069920e+01  3.200000e-02  2.930067e-09 
 3.300000e-02  3.069678e+01  3.300000e-02  3.021409e-09 
 3.400000e-02  3.069420e+01  3.400000e-02  3.115591e-09 
 3.500000e-02  3.069147e+01  3.500000e-02  3.212700e-09 
 3.600000e-02  3.068857e+01  3.600000e-02  3.312827e-09 
 3.700000e-02  3.068551e+01  3.700000e-02  3.416064e-09 
 3.800000e-02  3.068227e+01  3.800000e-02  3.522506e-09 
 3.900000e-02  3.067886e+01  3.900000e-02  3.632254e-09 
 4.000000e-02  3.067526e+01  4.000000e-02  3.745408e-09 
 4.100000e-02  3.067148e+01  4.100000e-02  3.862072e-09 
 4.200000e-02  3.066750e+01  4.200000e-02  3.982355e-09 
 4.300000e-02  3.066332e+01  4.300000e-02  4.106367e-09 
 4.400000e-02  3.065894e+01  4.400000e-02  4.234223e-09 
 4.500000e-02  3.065435e+01  4.500000e-02  4.366041e-09 
 4.600000e-02  3.064954e+01  4.600000e-02  4.501941e-09 
 4.700000e-02  3.064451e+01  4.700000e-02  4.642048e-09 
 4.800000e-02  3.063925e+01  4.800000e-02  4.786491e-09 
 4.900000e-02  3.063375e+01  4.900000e-02  4.935401e-09 
 5.000000e-02  3.062801e+01  5.000000e-02  5.088916e-09 
 5.100000e-02  3.062202e+01  5.100000e-02  5.247176e-09 
 5.200000e-02  3.061577e+01  5.200000e-02  5.410323e-09 
 5.300000e-02  3.060926e+01  5.300000e-02  5.578508e-09 
 5.400000e-02  3.060248e+01  5.400000e-02  5.751883e-09 
 5.500000e-02  3.059541e+01  5.500000e-02  5.930605e-09 
 5.600000e-02  3.058806e+01  5.600000e-02  6.114837e-09 
 5.700000e-02  3.058041e+01  5.700000e-02  6.304744e-09 
 5.800000e-02  3.057245e+01  5.800000e-02  6.500498e-09 
 5.900000e-02  3.056418e+01  5.900000e-02  6.702275e-09 
 6.000000e-02  3.055559e+01  6.000000e-02  6.910258e-09 
 6.100000e-02  3.054667e+01  6.100000e-02  7.124633e-09 
 6.200000e-02  3.053740e+01  6.200000e-02  7.345591e-09 
 6.300000e-02  3.052779e+01  6.300000e-02  7.573330e-09 
 6.400000e-02  3.051781e+01  6.400000e-02  7.808053e-09 
 6.500000e-02  3.050746e+01  6.500000e-02  8.049970e-09 
 6.600000e-02  3.049674e+01  6.600000e-02  8.299294e-09 
 6.700000e-02  3.048562e+01  6.700000e-02  8.556247e-09 
 6.800000e-02  3.047410e+01  6.800000e-02  8.821056e-09 
 6.900000e-02  3.046216e+01  6.900000e-02  9.093954e-09 
 7.000000e-02  3.044980e+01  7.000000e-02  9.375180e-09 
 7.100000e-02  3.043701e+01  7.100000e-02  9.664982e-09 
 7.200000e-02  3.042376e+01  7.200000e-02  9.963612e-09 
 7.300000e-02  3.041006e+01  7.300000e-02  1.027133e-08 
 7.400000e-02  3.039588e+01  7.400000e-02  1.058841e-08 
 7.500000e-02  3.038121e+01  7.500000e-02  1.091511e-08 
 7.600000e-02  3.036605e+01  7.600000e-02  1.125173e-08 
 7.700000e-02  3.035038e+01  7.700000e-02  1.159855e-08 
 7.800000e-02  3.033417e+01  7.800000e-02  1.195587e-08 
 7.900000e-02  3.031743e+01  7.900000e-02  1.232400e-08 
 8.000000e-02  3.030014e+01  8.000000e-02  1.270324e-08 
 8.100000e-02  3.028228e+01  8.100000e-02  1.309392e-08 
 8.200000e-02  3.026383e+01  8.200000e-02  1.349638e-08 
 8.300000e-02  3.024479e+01  8.300000e-02  1.391094e-08 
 8.400000e-02  3.022513e+01  8.400000e-02  1.433796e-08 
 8.500000e-02  3.020485e+01  8.500000e-02  1.477780e-08 
 8.600000e-02  3.018392e+01  8.600000e-02  1.523081e-08 
 8.700000e-02  3.016233e+01  8.700000e-02  1.569738e-08 
 8.800000e-02  3.014006e+01  8.800000e-02  1.617788e-08 
 8.900000e-02  3.011710e+01  8.900000e-02  1.667271e-08 
 9.000000e-02  3.009343e+01  9.000000e-02  1.718228e-08 
 9.100000e-02  3.006903e+01  9.100000e-02  1.770700e-08 
 9.200000e-02  3.004388e+01  9.200000e-02  1.824729e-08 
 9.300000e-02  3.001797e+01  9.300000e-02  1.880358e-08 
 9.400000e-02  2.999127e+01  9.400000e-02  1.937633e-08 
 9.500000e-02  2.996378e+01  9.500000e-02  1.996598e-08 
 9.600000e-02  2.993547e+01  9.600000e-02  2.057300e-08 
 9.700000e-02  2.990632e+01  9.700000e-02  2.119786e-08 
 9.800000e-02  2.987632e+01  9.800000e-02  2.184106e-08 
 9.900000e-02  2.984543e+01  9.900000e-02  2.250309e-08 
 1.000000e-01  2.981366e+01  1.000000e-01  2.318446e-08 
 1.010000e-01  2.978097e+01  1.010000e-01  2.388570e-08 
 1.020000e-01  2.974734e+01  1.020000e-01  2.460732e-08 
 1.030000e-01  2.971276e+01  1.030000e-01  2.534988e-08 
 1.040000e-01  2.967720e+01  1.040000e-01  2.611394e-08 
 1.050000e-01  2.964065e+01  1.050000e-01  2.690005e-08 
 1.060000e-01  2.960309e+01  1.060000e-01  2.770880e-08 
 1.070000e-01  2.956448e+01  1.070000e-01  2.854078e-08 
 1.080000e-01  2.952482e+01  1.080000e-01  2.939659e-08 
 1.090000e-01  2.948409e+01  1.090000e-01  3.027685e-08 
 1.100000e-01  2.944225e+01  1.100000e-01  3.118218e-08 
 1.110000e-01  2.939930e+01  1.110000e-01  3.211321e-08 
 1.120000e-01  2.935521e+01  1.120000e-01  3.307061e-08 
 1.130000e-01  2.930996e+01  1.130000e-01  3.405502e-08 
 1.140000e-01  2.926353e+01  1.140000e-01  3.506713e-08 
 1.150000e-01  2.921589e+01  1.150000e-01  3.610763e-08 
 1.160000e-01  2.916704e+01  1.160000e-01  3.717720e-08 
 1.170000e-01  2.911694e+01  1.170000e-01  3.827657e-08 
 1.180000e-01  2.906558e+01  1.180000e-01  3.940644e-08 
 1.190000e-01  2.901294e+01  1.190000e-01  4.056755e-08 
 1.200000e-01  2.895900e+01  1.200000e-01  4.176066e-08 
 1.210000e-01  2.890374e+01  1.210000e-01  4.298650e-08 
 1.220000e-01  2.884714e+01  1.220000e-01  4.424585e-08 
 1.230000e-01  2.878918e+01  1.230000e-01  4.553950e-08 
 1.240000e-01  2.872985e+01  1.240000e-01  4.686821e-08 
 1.250000e-01  2.866912e+01  1.250000e-01  4.823280e-08 
 1.260000e-01  2.860698e+01  1.260000e-01  4.963406e-08 
 1.270000e-01  2.854341e+01  1.270000e-01  5.107283e-08 
 1.280000e-01  2.847840e+01  1.280000e-01  5.254993e-08 
 1.290000e-01  2.841192e+01  1.290000e-01  5.406619e-08 
 1.300000e-01  2.834397e+01  1.300000e-01  5.562246e-08 
 1.310000e-01  2.827453e+01  1.310000e-01  5.721960e-08 
 1.320000e-01  2.820359e+01  1.320000e-01  5.885846e-08 
 1.330000e-01  2.813113e+01  1.330000e-01  6.053993e-08 
 1.340000e-01  2.805714e+01  1.340000e-01  6.226487e-08 
 1.350000e-01  2.798160e+01  1.350000e-01  6.403417e-08 
 1.360000e-01  2.790452e+01  1.360000e-01  6.584872e-08 
 1.370000e-01  2.782588e+01  1.370000e-01  6.770943e-08 
 1.380000e-01  2.774567e+01  1.380000e-01  6.961717e-08 
 1.390000e-01  2.766388e+01  1.390000e-01  7.157288e-08 
 1.400000e-01  2.758051e+01  1.400000e-01  7.357745e-08 
 1.410000e-01  2.749555e+01  1.410000e-01  7.563179e-08 
 1.420000e-01  2.740900e+01  1.420000e-01  7.773683e-08 
 1.430000e-01  2.732085e+01  1.430000e-01  7.989347e-08 
 1.440000e-01  2.723110e+01  1.440000e-01  8.210265e-08 
 1.450000e-01  2.713975e+01  1.450000e-01  8.436527e-08 
 1.460000e-01  2.704681e+01  1.460000e-01  8.668226e-08 
 1.470000e-01  2.695227e+01  1.470000e-01  8.905453e-08 
 1.480000e-01  2.685613e+01  1.480000e-01  9.148301e-08 
