 v-sweep         gmid            v-sweep         @m1[id]        
-2.00000000e-01  3.47059153e+01 -2.00000000e-01  7.78288736e-15 
-1.99000000e-01  3.47058653e+01 -1.99000000e-01  8.05774134e-15 
-1.98000000e-01  3.47058144e+01 -1.98000000e-01  8.34230140e-15 
-1.97000000e-01  3.47057626e+01 -1.97000000e-01  8.63691030e-15 
-1.96000000e-01  3.47057099e+01 -1.96000000e-01  8.94192286e-15 
-1.95000000e-01  3.47056563e+01 -1.95000000e-01  9.25770645e-15 
-1.94000000e-01  3.47056018e+01 -1.94000000e-01  9.58464140e-15 
-1.93000000e-01  3.47055463e+01 -1.93000000e-01  9.92312148e-15 
-1.92000000e-01  3.47054898e+01 -1.92000000e-01  1.02735544e-14 
-1.91000000e-01  3.47054324e+01 -1.91000000e-01  1.06363621e-14 
-1.90000000e-01  3.47053739e+01 -1.90000000e-01  1.10119816e-14 
-1.89000000e-01  3.47053145e+01 -1.89000000e-01  1.14008654e-14 
-1.88000000e-01  3.47052539e+01 -1.88000000e-01  1.18034817e-14 
-1.87000000e-01  3.47051924e+01 -1.87000000e-01  1.22203155e-14 
-1.86000000e-01  3.47051297e+01 -1.86000000e-01  1.26518688e-14 
-1.85000000e-01  3.47050660e+01 -1.85000000e-01  1.30986613e-14 
-1.84000000e-01  3.47050011e+01 -1.84000000e-01  1.35612311e-14 
-1.83000000e-01  3.47049351e+01 -1.83000000e-01  1.40401353e-14 
-1.82000000e-01  3.47048679e+01 -1.82000000e-01  1.45359506e-14 
-1.81000000e-01  3.47047996e+01 -1.81000000e-01  1.50492743e-14 
-1.80000000e-01  3.47047301e+01 -1.80000000e-01  1.55807244e-14 
-1.79000000e-01  3.47046593e+01 -1.79000000e-01  1.61309410e-14 
-1.78000000e-01  3.47045873e+01 -1.78000000e-01  1.67005867e-14 
-1.77000000e-01  3.47045141e+01 -1.77000000e-01  1.72903476e-14 
-1.76000000e-01  3.47044396e+01 -1.76000000e-01  1.79009338e-14 
-1.75000000e-01  3.47043637e+01 -1.75000000e-01  1.85330807e-14 
-1.74000000e-01  3.47042866e+01 -1.74000000e-01  1.91875495e-14 
-1.73000000e-01  3.47042081e+01 -1.73000000e-01  1.98651284e-14 
-1.72000000e-01  3.47041282e+01 -1.72000000e-01  2.05666333e-14 
-1.71000000e-01  3.47040469e+01 -1.71000000e-01  2.12929091e-14 
-1.70000000e-01  3.47039642e+01 -1.70000000e-01  2.20448302e-14 
-1.69000000e-01  3.47038801e+01 -1.69000000e-01  2.28233021e-14 
-1.68000000e-01  3.47037944e+01 -1.68000000e-01  2.36292624e-14 
-1.67000000e-01  3.47037073e+01 -1.67000000e-01  2.44636814e-14 
-1.66000000e-01  3.47036187e+01 -1.66000000e-01  2.53275640e-14 
-1.65000000e-01  3.47035285e+01 -1.65000000e-01  2.62219504e-14 
-1.64000000e-01  3.47034367e+01 -1.64000000e-01  2.71479176e-14 
-1.63000000e-01  3.47033433e+01 -1.63000000e-01  2.81065806e-14 
-1.62000000e-01  3.47032483e+01 -1.62000000e-01  2.90990938e-14 
-1.61000000e-01  3.47031517e+01 -1.61000000e-01  3.01266521e-14 
-1.60000000e-01  3.47030533e+01 -1.60000000e-01  3.11904929e-14 
-1.59000000e-01  3.47029532e+01 -1.59000000e-01  3.22918972e-14 
-1.58000000e-01  3.47028514e+01 -1.58000000e-01  3.34321911e-14 
-1.57000000e-01  3.47027478e+01 -1.57000000e-01  3.46127475e-14 
-1.56000000e-01  3.47026423e+01 -1.56000000e-01  3.58349880e-14 
-1.55000000e-01  3.47025351e+01 -1.55000000e-01  3.71003841e-14 
-1.54000000e-01  3.47024259e+01 -1.54000000e-01  3.84104595e-14 
-1.53000000e-01  3.47023148e+01 -1.53000000e-01  3.97667913e-14 
-1.52000000e-01  3.47022018e+01 -1.52000000e-01  4.11710127e-14 
-1.51000000e-01  3.47020869e+01 -1.51000000e-01  4.26248142e-14 
-1.50000000e-01  3.47019699e+01 -1.50000000e-01  4.41299463e-14 
-1.49000000e-01  3.47018508e+01 -1.49000000e-01  4.56882209e-14 
-1.48000000e-01  3.47017297e+01 -1.48000000e-01  4.73015142e-14 
-1.47000000e-01  3.47016065e+01 -1.47000000e-01  4.89717683e-14 
-1.46000000e-01  3.47014811e+01 -1.46000000e-01  5.07009942e-14 
-1.45000000e-01  3.47013535e+01 -1.45000000e-01  5.24912735e-14 
-1.44000000e-01  3.47012237e+01 -1.44000000e-01  5.43447616e-14 
-1.43000000e-01  3.47010916e+01 -1.43000000e-01  5.62636897e-14 
-1.42000000e-01  3.47009572e+01 -1.42000000e-01  5.82503679e-14 
-1.41000000e-01  3.47008204e+01 -1.41000000e-01  6.03071878e-14 
-1.40000000e-01  3.47006813e+01 -1.40000000e-01  6.24366254e-14 
-1.39000000e-01  3.47005397e+01 -1.39000000e-01  6.46412440e-14 
-1.38000000e-01  3.47003957e+01 -1.38000000e-01  6.69236975e-14 
-1.37000000e-01  3.47002491e+01 -1.37000000e-01  6.92867333e-14 
-1.36000000e-01  3.47001000e+01 -1.36000000e-01  7.17331959e-14 
-1.35000000e-01  3.46999482e+01 -1.35000000e-01  7.42660301e-14 
-1.34000000e-01  3.46997938e+01 -1.34000000e-01  7.68882847e-14 
-1.33000000e-01  3.46996367e+01 -1.33000000e-01  7.96031158e-14 
-1.32000000e-01  3.46994769e+01 -1.32000000e-01  8.24137912e-14 
-1.31000000e-01  3.46993142e+01 -1.31000000e-01  8.53236940e-14 
-1.30000000e-01  3.46991487e+01 -1.30000000e-01  8.83363263e-14 
-1.29000000e-01  3.46989804e+01 -1.29000000e-01  9.14553143e-14 
-1.28000000e-01  3.46988090e+01 -1.28000000e-01  9.46844117e-14 
-1.27000000e-01  3.46986347e+01 -1.27000000e-01  9.80275049e-14 
-1.26000000e-01  3.46984574e+01 -1.26000000e-01  1.01488617e-13 
-1.25000000e-01  3.46982769e+01 -1.25000000e-01  1.05071914e-13 
-1.24000000e-01  3.46980933e+01 -1.24000000e-01  1.08781709e-13 
-1.23000000e-01  3.46979064e+01 -1.23000000e-01  1.12622464e-13 
-1.22000000e-01  3.46977163e+01 -1.22000000e-01  1.16598804e-13 
-1.21000000e-01  3.46975229e+01 -1.21000000e-01  1.20715511e-13 
-1.20000000e-01  3.46973261e+01 -1.20000000e-01  1.24977542e-13 
-1.19000000e-01  3.46971259e+01 -1.19000000e-01  1.29390024e-13 
-1.18000000e-01  3.46969221e+01 -1.18000000e-01  1.33958267e-13 
-1.17000000e-01  3.46967148e+01 -1.17000000e-01  1.38687767e-13 
-1.16000000e-01  3.46965039e+01 -1.16000000e-01  1.43584216e-13 
-1.15000000e-01  3.46962892e+01 -1.15000000e-01  1.48653506e-13 
-1.14000000e-01  3.46960709e+01 -1.14000000e-01  1.53901735e-13 
-1.13000000e-01  3.46958487e+01 -1.13000000e-01  1.59335218e-13 
-1.12000000e-01  3.46956226e+01 -1.12000000e-01  1.64960493e-13 
-1.11000000e-01  3.46953926e+01 -1.11000000e-01  1.70784327e-13 
-1.10000000e-01  3.46951585e+01 -1.10000000e-01  1.76813728e-13 
-1.09000000e-01  3.46949204e+01 -1.09000000e-01  1.83055948e-13 
-1.08000000e-01  3.46946781e+01 -1.08000000e-01  1.89518498e-13 
-1.07000000e-01  3.46944315e+01 -1.07000000e-01  1.96209151e-13 
-1.06000000e-01  3.46941807e+01 -1.06000000e-01  2.03135957e-13 
-1.05000000e-01  3.46939254e+01 -1.05000000e-01  2.10307248e-13 
-1.04000000e-01  3.46936658e+01 -1.04000000e-01  2.17731650e-13 
-1.03000000e-01  3.46934015e+01 -1.03000000e-01  2.25418095e-13 
-1.02000000e-01  3.46931327e+01 -1.02000000e-01  2.33375827e-13 
-1.01000000e-01  3.46928591e+01 -1.01000000e-01  2.41614418e-13 
-1.00000000e-01  3.46925808e+01 -1.00000000e-01  2.50143777e-13 
-9.90000000e-02  3.46922976e+01 -9.90000000e-02  2.58974163e-13 
-9.80000000e-02  3.46920095e+01 -9.80000000e-02  2.68116196e-13 
-9.70000000e-02  3.46917163e+01 -9.70000000e-02  2.77580871e-13 
-9.60000000e-02  3.46914180e+01 -9.60000000e-02  2.87379570e-13 
-9.50000000e-02  3.46911145e+01 -9.50000000e-02  2.97524077e-13 
-9.40000000e-02  3.46908057e+01 -9.40000000e-02  3.08026591e-13 
-9.30000000e-02  3.46904915e+01 -9.30000000e-02  3.18899741e-13 
-9.20000000e-02  3.46901718e+01 -9.20000000e-02  3.30156602e-13 
-9.10000000e-02  3.46898465e+01 -9.10000000e-02  3.41810710e-13 
-9.00000000e-02  3.46895155e+01 -9.00000000e-02  3.53876076e-13 
-8.90000000e-02  3.46891788e+01 -8.90000000e-02  3.66367209e-13 
-8.80000000e-02  3.46888361e+01 -8.80000000e-02  3.79299125e-13 
-8.70000000e-02  3.46884875e+01 -8.70000000e-02  3.92687372e-13 
-8.60000000e-02  3.46881328e+01 -8.60000000e-02  4.06548045e-13 
-8.50000000e-02  3.46877719e+01 -8.50000000e-02  4.20897808e-13 
-8.40000000e-02  3.46874047e+01 -8.40000000e-02  4.35753909e-13 
-8.30000000e-02  3.46870311e+01 -8.30000000e-02  4.51134208e-13 
-8.20000000e-02  3.46866510e+01 -8.20000000e-02  4.67057191e-13 
-8.10000000e-02  3.46862642e+01 -8.10000000e-02  4.83541998e-13 
-8.00000000e-02  3.46858706e+01 -8.00000000e-02  5.00608442e-13 
-7.90000000e-02  3.46854702e+01 -7.90000000e-02  5.18277033e-13 
-7.80000000e-02  3.46850628e+01 -7.80000000e-02  5.36569008e-13 
-7.70000000e-02  3.46846483e+01 -7.70000000e-02  5.55506348e-13 
-7.60000000e-02  3.46842266e+01 -7.60000000e-02  5.75111810e-13 
-7.50000000e-02  3.46837975e+01 -7.50000000e-02  5.95408954e-13 
-7.40000000e-02  3.46833609e+01 -7.40000000e-02  6.16422168e-13 
-7.30000000e-02  3.46829167e+01 -7.30000000e-02  6.38176701e-13 
-7.20000000e-02  3.46824647e+01 -7.20000000e-02  6.60698691e-13 
-7.10000000e-02  3.46820048e+01 -7.10000000e-02  6.84015195e-13 
-7.00000000e-02  3.46815369e+01 -7.00000000e-02  7.08154227e-13 
-6.90000000e-02  3.46810609e+01 -6.90000000e-02  7.33144783e-13 
-6.80000000e-02  3.46805765e+01 -6.80000000e-02  7.59016885e-13 
-6.70000000e-02  3.46800837e+01 -6.70000000e-02  7.85801608e-13 
-6.60000000e-02  3.46795822e+01 -6.60000000e-02  8.13531126e-13 
-6.50000000e-02  3.46790721e+01 -6.50000000e-02  8.42238742e-13 
-6.40000000e-02  3.46785530e+01 -6.40000000e-02  8.71958934e-13 
-6.30000000e-02  3.46780249e+01 -6.30000000e-02  9.02727394e-13 
-6.20000000e-02  3.46774875e+01 -6.20000000e-02  9.34581070e-13 
-6.10000000e-02  3.46769408e+01 -6.10000000e-02  9.67558212e-13 
-6.00000000e-02  3.46763845e+01 -6.00000000e-02  1.00169842e-12 
-5.90000000e-02  3.46758186e+01 -5.90000000e-02  1.03704267e-12 
-5.80000000e-02  3.46752427e+01 -5.80000000e-02  1.07363341e-12 
-5.70000000e-02  3.46746569e+01 -5.70000000e-02  1.11151457e-12 
-5.60000000e-02  3.46740608e+01 -5.60000000e-02  1.15073161e-12 
-5.50000000e-02  3.46734543e+01 -5.50000000e-02  1.19133161e-12 
-5.40000000e-02  3.46728372e+01 -5.40000000e-02  1.23336330e-12 
-5.30000000e-02  3.46722094e+01 -5.30000000e-02  1.27687712e-12 
-5.20000000e-02  3.46715706e+01 -5.20000000e-02  1.32192531e-12 
-5.10000000e-02  3.46709207e+01 -5.10000000e-02  1.36856191e-12 
-5.00000000e-02  3.46702595e+01 -5.00000000e-02  1.41684289e-12 
-4.90000000e-02  3.46695867e+01 -4.90000000e-02  1.46682617e-12 
-4.80000000e-02  3.46689022e+01 -4.80000000e-02  1.51857174e-12 
-4.70000000e-02  3.46682058e+01 -4.70000000e-02  1.57214166e-12 
-4.60000000e-02  3.46674973e+01 -4.60000000e-02  1.62760019e-12 
-4.50000000e-02  3.46667764e+01 -4.50000000e-02  1.68501386e-12 
-4.40000000e-02  3.46660429e+01 -4.40000000e-02  1.74445154e-12 
-4.30000000e-02  3.46652966e+01 -4.30000000e-02  1.80598450e-12 
-4.20000000e-02  3.46645374e+01 -4.20000000e-02  1.86968654e-12 
-4.10000000e-02  3.46637649e+01 -4.10000000e-02  1.93563404e-12 
-4.00000000e-02  3.46629790e+01 -4.00000000e-02  2.00390608e-12 
-3.90000000e-02  3.46621794e+01 -3.90000000e-02  2.07458451e-12 
-3.80000000e-02  3.46613658e+01 -3.80000000e-02  2.14775406e-12 
-3.70000000e-02  3.46605381e+01 -3.70000000e-02  2.22350243e-12 
-3.60000000e-02  3.46596960e+01 -3.60000000e-02  2.30192043e-12 
-3.50000000e-02  3.46588392e+01 -3.50000000e-02  2.38310203e-12 
-3.40000000e-02  3.46579675e+01 -3.40000000e-02  2.46714452e-12 
-3.30000000e-02  3.46570806e+01 -3.30000000e-02  2.55414860e-12 
-3.20000000e-02  3.46561783e+01 -3.20000000e-02  2.64421854e-12 
-3.10000000e-02  3.46552602e+01 -3.10000000e-02  2.73746222e-12 
-3.00000000e-02  3.46543262e+01 -3.00000000e-02  2.83399134e-12 
-2.90000000e-02  3.46533760e+01 -2.90000000e-02  2.93392154e-12 
-2.80000000e-02  3.46524092e+01 -2.80000000e-02  3.03737250e-12 
-2.70000000e-02  3.46514256e+01 -2.70000000e-02  3.14446811e-12 
-2.60000000e-02  3.46504249e+01 -2.60000000e-02  3.25533659e-12 
-2.50000000e-02  3.46494067e+01 -2.50000000e-02  3.37011071e-12 
-2.40000000e-02  3.46483709e+01 -2.40000000e-02  3.48892786e-12 
-2.30000000e-02  3.46473171e+01 -2.30000000e-02  3.61193028e-12 
-2.20000000e-02  3.46462449e+01 -2.20000000e-02  3.73926517e-12 
-2.10000000e-02  3.46451541e+01 -2.10000000e-02  3.87108495e-12 
-2.00000000e-02  3.46440443e+01 -2.00000000e-02  4.00754733e-12 
-1.90000000e-02  3.46429152e+01 -1.90000000e-02  4.14881561e-12 
-1.80000000e-02  3.46417665e+01 -1.80000000e-02  4.29505878e-12 
-1.70000000e-02  3.46405979e+01 -1.70000000e-02  4.44645177e-12 
-1.60000000e-02  3.46394089e+01 -1.60000000e-02  4.60317567e-12 
-1.50000000e-02  3.46381993e+01 -1.50000000e-02  4.76541790e-12 
-1.40000000e-02  3.46369687e+01 -1.40000000e-02  4.93337245e-12 
-1.30000000e-02  3.46357167e+01 -1.30000000e-02  5.10724012e-12 
-1.20000000e-02  3.46344430e+01 -1.20000000e-02  5.28722877e-12 
-1.10000000e-02  3.46331471e+01 -1.10000000e-02  5.47355352e-12 
-1.00000000e-02  3.46318288e+01 -1.00000000e-02  5.66643705e-12 
-9.00000000e-03  3.46304876e+01 -9.00000000e-03  5.86610983e-12 
-8.00000000e-03  3.46291230e+01 -8.00000000e-03  6.07281043e-12 
-7.00000000e-03  3.46277349e+01 -7.00000000e-03  6.28678576e-12 
-6.00000000e-03  3.46263226e+01 -6.00000000e-03  6.50829139e-12 
-5.00000000e-03  3.46248858e+01 -5.00000000e-03  6.73759185e-12 
-4.00000000e-03  3.46234241e+01 -4.00000000e-03  6.97496093e-12 
-3.00000000e-03  3.46219371e+01 -3.00000000e-03  7.22068200e-12 
-2.00000000e-03  3.46204242e+01 -2.00000000e-03  7.47504838e-12 
-1.00000000e-03  3.46188852e+01 -1.00000000e-03  7.73836363e-12 
 1.59594560e-16  3.46173195e+01  1.59594560e-16  8.01094197e-12 
 1.00000000e-03  3.46157266e+01  1.00000000e-03  8.29310858e-12 
 2.00000000e-03  3.46141061e+01  2.00000000e-03  8.58520006e-12 
 3.00000000e-03  3.46124576e+01  3.00000000e-03  8.88756476e-12 
 4.00000000e-03  3.46107805e+01  4.00000000e-03  9.20056323e-12 
 5.00000000e-03  3.46090744e+01  5.00000000e-03  9.52456864e-12 
 6.00000000e-03  3.46073387e+01  6.00000000e-03  9.85996720e-12 
 7.00000000e-03  3.46055730e+01  7.00000000e-03  1.02071586e-11 
 8.00000000e-03  3.46037767e+01  8.00000000e-03  1.05665566e-11 
 9.00000000e-03  3.46019493e+01  9.00000000e-03  1.09385893e-11 
 1.00000000e-02  3.46000903e+01  1.00000000e-02  1.13236999e-11 
 1.10000000e-02  3.45981992e+01  1.10000000e-02  1.17223469e-11 
 1.20000000e-02  3.45962753e+01  1.20000000e-02  1.21350050e-11 
 1.30000000e-02  3.45943182e+01  1.30000000e-02  1.25621654e-11 
 1.40000000e-02  3.45923273e+01  1.40000000e-02  1.30043365e-11 
 1.50000000e-02  3.45903019e+01  1.50000000e-02  1.34620443e-11 
 1.60000000e-02  3.45882416e+01  1.60000000e-02  1.39358335e-11 
 1.70000000e-02  3.45861457e+01  1.70000000e-02  1.44262674e-11 
 1.80000000e-02  3.45840135e+01  1.80000000e-02  1.49339292e-11 
 1.90000000e-02  3.45818446e+01  1.90000000e-02  1.54594224e-11 
 2.00000000e-02  3.45796382e+01  2.00000000e-02  1.60033716e-11 
 2.10000000e-02  3.45773937e+01  2.10000000e-02  1.65664232e-11 
 2.20000000e-02  3.45751105e+01  2.20000000e-02  1.71492459e-11 
 2.30000000e-02  3.45727880e+01  2.30000000e-02  1.77525320e-11 
 2.40000000e-02  3.45704253e+01  2.40000000e-02  1.83769978e-11 
 2.50000000e-02  3.45680220e+01  2.50000000e-02  1.90233846e-11 
 2.60000000e-02  3.45655772e+01  2.60000000e-02  1.96924594e-11 
 2.70000000e-02  3.45630903e+01  2.70000000e-02  2.03850162e-11 
 2.80000000e-02  3.45605605e+01  2.80000000e-02  2.11018763e-11 
 2.90000000e-02  3.45579872e+01  2.90000000e-02  2.18438898e-11 
 3.00000000e-02  3.45553696e+01  3.00000000e-02  2.26119362e-11 
 3.10000000e-02  3.45527069e+01  3.10000000e-02  2.34069260e-11 
 3.20000000e-02  3.45499984e+01  3.20000000e-02  2.42298009e-11 
 3.30000000e-02  3.45472433e+01  3.30000000e-02  2.50815356e-11 
 3.40000000e-02  3.45444409e+01  3.40000000e-02  2.59631387e-11 
 3.50000000e-02  3.45415903e+01  3.50000000e-02  2.68756537e-11 
 3.60000000e-02  3.45386906e+01  3.60000000e-02  2.78201604e-11 
 3.70000000e-02  3.45357412e+01  3.70000000e-02  2.87977763e-11 
 3.80000000e-02  3.45327411e+01  3.80000000e-02  2.98096575e-11 
 3.90000000e-02  3.45296895e+01  3.90000000e-02  3.08570003e-11 
 4.00000000e-02  3.45265856e+01  4.00000000e-02  3.19410425e-11 
 4.10000000e-02  3.45234284e+01  4.10000000e-02  3.30630648e-11 
 4.20000000e-02  3.45202170e+01  4.20000000e-02  3.42243924e-11 
 4.30000000e-02  3.45169506e+01  4.30000000e-02  3.54263965e-11 
 4.40000000e-02  3.45136282e+01  4.40000000e-02  3.66704958e-11 
 4.50000000e-02  3.45102489e+01  4.50000000e-02  3.79581579e-11 
 4.60000000e-02  3.45068117e+01  4.60000000e-02  3.92909016e-11 
 4.70000000e-02  3.45033156e+01  4.70000000e-02  4.06702980e-11 
 4.80000000e-02  3.44997598e+01  4.80000000e-02  4.20979729e-11 
 4.90000000e-02  3.44961431e+01  4.90000000e-02  4.35756081e-11 
 5.00000000e-02  3.44924646e+01  5.00000000e-02  4.51049437e-11 
 5.10000000e-02  3.44887232e+01  5.10000000e-02  4.66877798e-11 
 5.20000000e-02  3.44849179e+01  5.20000000e-02  4.83259789e-11 
 5.30000000e-02  3.44810477e+01  5.30000000e-02  5.00214678e-11 
 5.40000000e-02  3.44771113e+01  5.40000000e-02  5.17762399e-11 
 5.50000000e-02  3.44731078e+01  5.50000000e-02  5.35923573e-11 
 5.60000000e-02  3.44690361e+01  5.60000000e-02  5.54719534e-11 
 5.70000000e-02  3.44648949e+01  5.70000000e-02  5.74172350e-11 
 5.80000000e-02  3.44606831e+01  5.80000000e-02  5.94304852e-11 
 5.90000000e-02  3.44563997e+01  5.90000000e-02  6.15140658e-11 
 6.00000000e-02  3.44520433e+01  6.00000000e-02  6.36704199e-11 
 6.10000000e-02  3.44476128e+01  6.10000000e-02  6.59020747e-11 
 6.20000000e-02  3.44431070e+01  6.20000000e-02  6.82116444e-11 
 6.30000000e-02  3.44385246e+01  6.30000000e-02  7.06018333e-11 
 6.40000000e-02  3.44338643e+01  6.40000000e-02  7.30754386e-11 
 6.50000000e-02  3.44291249e+01  6.50000000e-02  7.56353536e-11 
 6.60000000e-02  3.44243051e+01  6.60000000e-02  7.82845712e-11 
 6.70000000e-02  3.44194036e+01  6.70000000e-02  8.10261869e-11 
 6.80000000e-02  3.44144189e+01  6.80000000e-02  8.38634026e-11 
 6.90000000e-02  3.44093498e+01  6.90000000e-02  8.67995300e-11 
 7.00000000e-02  3.44041949e+01  7.00000000e-02  8.98379944e-11 
 7.10000000e-02  3.43989528e+01  7.10000000e-02  9.29823386e-11 
 7.20000000e-02  3.43936220e+01  7.20000000e-02  9.62362266e-11 
 7.30000000e-02  3.43882011e+01  7.30000000e-02  9.96034479e-11 
 7.40000000e-02  3.43826886e+01  7.40000000e-02  1.03087922e-10 
 7.50000000e-02  3.43770831e+01  7.50000000e-02  1.06693702e-10 
 7.60000000e-02  3.43713830e+01  7.60000000e-02  1.10424979e-10 
 7.70000000e-02  3.43655868e+01  7.70000000e-02  1.14286089e-10 
 7.80000000e-02  3.43596930e+01  7.80000000e-02  1.18281516e-10 
 7.90000000e-02  3.43537000e+01  7.90000000e-02  1.22415894e-10 
 8.00000000e-02  3.43476061e+01  8.00000000e-02  1.26694018e-10 
 8.10000000e-02  3.43414097e+01  8.10000000e-02  1.31120847e-10 
 8.20000000e-02  3.43351092e+01  8.20000000e-02  1.35701505e-10 
 8.30000000e-02  3.43287030e+01  8.30000000e-02  1.40441295e-10 
 8.40000000e-02  3.43221893e+01  8.40000000e-02  1.45345698e-10 
 8.50000000e-02  3.43155664e+01  8.50000000e-02  1.50420382e-10 
 8.60000000e-02  3.43088325e+01  8.60000000e-02  1.55671206e-10 
 8.70000000e-02  3.43019859e+01  8.70000000e-02  1.61104230e-10 
 8.80000000e-02  3.42950248e+01  8.80000000e-02  1.66725719e-10 
 8.90000000e-02  3.42879473e+01  8.90000000e-02  1.72542150e-10 
 9.00000000e-02  3.42807517e+01  9.00000000e-02  1.78560221e-10 
 9.10000000e-02  3.42734360e+01  9.10000000e-02  1.84786854e-10 
 9.20000000e-02  3.42659983e+01  9.20000000e-02  1.91229207e-10 
 9.30000000e-02  3.42584368e+01  9.30000000e-02  1.97894681e-10 
 9.40000000e-02  3.42507494e+01  9.40000000e-02  2.04790925e-10 
 9.50000000e-02  3.42429341e+01  9.50000000e-02  2.11925846e-10 
 9.60000000e-02  3.42349891e+01  9.60000000e-02  2.19307620e-10 
 9.70000000e-02  3.42269121e+01  9.70000000e-02  2.26944698e-10 
 9.80000000e-02  3.42187012e+01  9.80000000e-02  2.34845813e-10 
 9.90000000e-02  3.42103543e+01  9.90000000e-02  2.43019995e-10 
 1.00000000e-01  3.42018693e+01  1.00000000e-01  2.51476575e-10 
 1.01000000e-01  3.41932439e+01  1.01000000e-01  2.60225201e-10 
 1.02000000e-01  3.41844761e+01  1.02000000e-01  2.69275841e-10 
 1.03000000e-01  3.41755635e+01  1.03000000e-01  2.78638800e-10 
 1.04000000e-01  3.41665041e+01  1.04000000e-01  2.88324726e-10 
 1.05000000e-01  3.41572955e+01  1.05000000e-01  2.98344625e-10 
